T6B54 000:008.646   SEGGER J-Link V8.94 Log File
T6B54 000:008.761   DLL Compiled: Dec 10 2025 14:45:18
T6B54 000:008.774   Logging started @ 2025-12-24 15:45
T6B54 000:008.787   Process: D:\software\mdk\UV4\UV4.exe
T6B54 000:008.806 - 8.799ms 
T6B54 000:008.824 JLINK_SetWarnOutHandler(...)
T6B54 000:008.835 - 0.012ms 
T6B54 000:008.850 JLINK_OpenEx(...)
T6B54 000:013.439   Firmware: J-Link V9 compiled May  7 2021 16:26:12
T6B54 000:015.035   Firmware: J-Link V9 compiled May  7 2021 16:26:12
T6B54 000:015.174   Decompressing FW timestamp took 96 us
T6B54 000:023.503   Hardware: V9.60
T6B54 000:023.531   S/N: 69663161
T6B54 000:023.548   OEM: SEGGER
T6B54 000:023.564   Feature(s): RDI, GDB, FlashDL, FlashBP, JFlash
T6B54 000:024.981   Bootloader: (FW returned invalid version)
T6B54 000:026.878   TELNET listener socket opened on port 19021
T6B54 000:027.037   WEBSRV WEBSRV_Init(): Starting webserver thread(s)
T6B54 000:027.362   WEBSRV Webserver running on local port 19080
T6B54 000:027.499   Looking for J-Link GUI Server exe at: D:\software\mdk\ARM\Segger\JLinkGUIServer.exe
T6B54 000:027.684   Looking for J-Link GUI Server exe at: C:\Program Files\SEGGER\JLink_V894\JLinkGUIServer.exe
T6B54 000:027.748   Forking J-Link GUI Server: C:\Program Files\SEGGER\JLink_V894\JLinkGUIServer.exe
T6B54 000:054.397   J-Link GUI Server info: "J-Link GUI server V8.94 "
T6B54 000:056.514 - 47.658ms returns "O.K."
T6B54 000:056.552 JLINK_GetEmuCaps()
T6B54 000:056.567 - 0.013ms returns 0xB9FF7BBF
T6B54 000:056.583 JLINK_TIF_GetAvailable(...)
T6B54 000:057.010 - 0.428ms 
T6B54 000:057.039 JLINK_SetErrorOutHandler(...)
T6B54 000:057.052 - 0.012ms 
T6B54 000:057.102 JLINK_ExecCommand("ProjectFile = "E:\stm32f743vit6\stm32cubemx\stm32h743vit6\MDK-ARM\JLinkSettings.ini"", ...). 
T6B54 000:069.108   Ref file found at: D:\software\mdk\ARM\Segger\JLinkDevices.ref
T6B54 000:069.237   REF file references invalid XML file: C:\Program Files\SEGGER\JLink_V894\JLinkDevices.xml
T6B54 000:070.343 - 13.254ms returns 0x00
T6B54 000:070.403 JLINK_ExecCommand("Device = STM32H743VITx", ...). 
T6B54 000:071.426   Flash bank @ 0x08000000: SFL: Parsing sectorization info from ELF file
T6B54 000:071.455     FlashDevice.SectorInfo[0]: .SectorSize = 0x00020000, .SectorStartAddr = 0x00000000
T6B54 000:071.472   FlashBank @0x08000000: Sectorization info from SFL ELF file ignored because sectorization override from DLL / XML file is active.
T6B54 000:071.800   Flash bank @ 0x08100000: SFL: Parsing sectorization info from ELF file
T6B54 000:071.820     FlashDevice.SectorInfo[0]: .SectorSize = 0x00020000, .SectorStartAddr = 0x00000000
T6B54 000:071.837   FlashBank @0x08100000: Sectorization info from SFL ELF file ignored because sectorization override from DLL / XML file is active.
T6B54 000:072.134   Flash bank @ 0x90000000: SFL: Parsing sectorization info from ELF file
T6B54 000:072.152     FlashDevice.SectorInfo[0]: .SectorSize = 0x00010000, .SectorStartAddr = 0x00000000
T6B54 000:085.032   Device "STM32H743VI" selected.
T6B54 000:085.411 - 14.990ms returns 0x00
T6B54 000:085.433 JLINK_ExecCommand("DisableConnectionTimeout", ...). 
T6B54 000:085.453   ERROR: Unknown command
T6B54 000:085.469 - 0.023ms returns 0x01
T6B54 000:085.482 JLINK_GetHardwareVersion()
T6B54 000:085.492 - 0.010ms returns 96000
T6B54 000:085.504 JLINK_GetDLLVersion()
T6B54 000:085.514 - 0.010ms returns 89400
T6B54 000:085.525 JLINK_GetOEMString(...)
T6B54 000:085.537 JLINK_GetFirmwareString(...)
T6B54 000:085.547 - 0.010ms 
T6B54 000:085.570 JLINK_GetDLLVersion()
T6B54 000:085.581 - 0.010ms returns 89400
T6B54 000:085.592 JLINK_GetCompileDateTime()
T6B54 000:085.602 - 0.010ms 
T6B54 000:085.617 JLINK_GetFirmwareString(...)
T6B54 000:085.628 - 0.010ms 
T6B54 000:085.641 JLINK_GetHardwareVersion()
T6B54 000:085.652 - 0.010ms returns 96000
T6B54 000:085.665 JLINK_GetSN()
T6B54 000:085.676 - 0.010ms returns 69663161
T6B54 000:085.689 JLINK_GetOEMString(...)
T6B54 000:085.708 JLINK_TIF_Select(JLINKARM_TIF_SWD)
T6B54 000:087.390 - 1.683ms returns 0x00
T6B54 000:087.437 JLINK_HasError()
T6B54 000:087.457 JLINK_SetSpeed(5000)
T6B54 000:087.847 - 0.391ms 
T6B54 000:087.862 JLINK_GetId()
T6B54 000:088.318   ConfigTargetSettings() start
T6B54 000:088.335    J-Link Script File: Executing ConfigTargetSettings()
T6B54 000:088.366   ConfigTargetSettings() end - Took 28us
T6B54 000:088.388   InitTarget() start
T6B54 000:088.404    J-Link Script File: Executing InitTarget()
T6B54 000:088.861   SWD selected. Executing JTAG -> SWD switching sequence.
T6B54 000:092.055   DAP initialized successfully.
T6B54 000:111.737   InitTarget() end - Took 23.3ms
T6B54 000:112.956   Found SW-DP with ID 0x6BA02477
T6B54 000:116.681   DPIDR: 0x6BA02477
T6B54 000:116.714   CoreSight SoC-400 or earlier
T6B54 000:116.738   Scanning AP map to find all available APs
T6B54 000:118.906   AP[3]: Stopped AP scan as end of AP map has been reached
T6B54 000:118.931   AP[0]: AHB-AP (IDR: 0x84770001, ADDR: 0x00000000)
T6B54 000:118.954   AP[1]: AHB-AP (IDR: 0x84770001, ADDR: 0x01000000)
T6B54 000:118.976   AP[2]: APB-AP (IDR: 0x54770002, ADDR: 0x02000000)
T6B54 000:118.999   Iterating through AP map to find AHB-AP to use
T6B54 000:120.338   AP[0]: Core found
T6B54 000:120.370   AP[0]: AHB-AP ROM base: 0xE00FE000
T6B54 000:121.131   CPUID register: 0x411FC271. Implementer code: 0x41 (ARM)
T6B54 000:121.847   Cache: L1 I/D-cache present
T6B54 000:121.879   Found Cortex-M7 r1p1, Little endian.
T6B54 000:122.858   -- Max. mem block: 0x00010C40
T6B54 000:124.949   CPU_ReadMem(4 bytes @ 0xE000EDF0)
T6B54 000:125.638   CPU_ReadMem(4 bytes @ 0xE0002000)
T6B54 000:126.273   FPUnit: 8 code (BP) slots and 0 literal slots
T6B54 000:126.300   CPU_ReadMem(4 bytes @ 0xE000EDFC)
T6B54 000:126.831   CPU_ReadMem(4 bytes @ 0xE0001000)
T6B54 000:127.418   CPU_WriteMem(4 bytes @ 0xE0001000)
T6B54 000:128.054   CPU_ReadMem(4 bytes @ 0xE000ED88)
T6B54 000:128.707   CPU_WriteMem(4 bytes @ 0xE000ED88)
T6B54 000:129.301   CPU_ReadMem(4 bytes @ 0xE000ED88)
T6B54 000:129.855   CPU_WriteMem(4 bytes @ 0xE000ED88)
T6B54 000:130.488   CoreSight components:
T6B54 000:130.518   ROMTbl[0] @ E00FE000
T6B54 000:130.544   CPU_ReadMem(64 bytes @ 0xE00FE000)
T6B54 000:131.426   CPU_ReadMem(32 bytes @ 0xE00FFFE0)
T6B54 000:132.189   [0][0]: E00FF000 CID B105100D PID 000BB4C7 ROM Table
T6B54 000:132.237   ROMTbl[1] @ E00FF000
T6B54 000:132.266   CPU_ReadMem(64 bytes @ 0xE00FF000)
T6B54 000:133.156   CPU_ReadMem(32 bytes @ 0xE000EFE0)
T6B54 000:133.882   [1][0]: E000E000 CID B105E00D PID 000BB00C SCS-M7
T6B54 000:133.917   CPU_ReadMem(32 bytes @ 0xE0001FE0)
T6B54 000:134.662   [1][1]: E0001000 CID B105E00D PID 000BB002 DWT
T6B54 000:134.697   CPU_ReadMem(32 bytes @ 0xE0002FE0)
T6B54 000:135.377   [1][2]: E0002000 CID B105E00D PID 000BB00E FPB-M7
T6B54 000:135.404   CPU_ReadMem(32 bytes @ 0xE0000FE0)
T6B54 000:136.059   [1][3]: E0000000 CID B105E00D PID 000BB001 ITM
T6B54 000:136.087   CPU_ReadMem(32 bytes @ 0xE0041FE0)
T6B54 000:136.743   [0][1]: E0041000 CID B105900D PID 001BB975 ETM-M7
T6B54 000:136.771   CPU_ReadMem(32 bytes @ 0xE0043FE0)
T6B54 000:137.490   [0][2]: E0043000 CID B105900D PID 004BB906 CTI
T6B54 000:137.525   CPU_WriteMem(4 bytes @ 0xE000ED84)
T6B54 000:138.102   CPU_ReadMem(4 bytes @ 0xE000ED80)
T6B54 000:138.629   I-Cache L1: 16 KB, 256 Sets, 32 Bytes/Line, 2-Way
T6B54 000:138.659   CPU_WriteMem(4 bytes @ 0xE000ED84)
T6B54 000:139.185   CPU_ReadMem(4 bytes @ 0xE000ED80)
T6B54 000:139.920   D-Cache L1: 16 KB, 128 Sets, 32 Bytes/Line, 4-Way
T6B54 000:140.459 - 52.595ms returns 0x6BA02477
T6B54 000:140.582 JLINK_GetDLLVersion()
T6B54 000:140.625 - 0.042ms returns 89400
T6B54 000:140.647 JLINK_CORE_GetFound()
T6B54 000:140.665 - 0.017ms returns 0xE0100FF
T6B54 000:140.685 JLINK_GetDebugInfo(0x100 = JLINKARM_ROM_TABLE_ADDR_INDEX)
T6B54 000:140.708   Value=0xE00FE000
T6B54 000:140.738 - 0.053ms returns 0
T6B54 000:140.770 JLINK_GetDebugInfo(0x100 = JLINKARM_ROM_TABLE_ADDR_INDEX)
T6B54 000:140.786   Value=0xE00FE000
T6B54 000:140.811 - 0.041ms returns 0
T6B54 000:140.828 JLINK_GetDebugInfo(0x101 = JLINKARM_DEBUG_INFO_ETM_ADDR_INDEX)
T6B54 000:140.850   Value=0xE0041000
T6B54 000:140.875 - 0.046ms returns 0
T6B54 000:140.893 JLINK_ReadMemEx(0xE0041FD0, 0x20 Bytes, Flags = 0x02000004)
T6B54 000:140.944   CPU_ReadMem(32 bytes @ 0xE0041FD0)
T6B54 000:141.664   Data:  04 00 00 00 00 00 00 00 00 00 00 00 00 00 00 00 ...
T6B54 000:141.702 - 0.808ms returns 32 (0x20)
T6B54 000:141.725 JLINK_GetDebugInfo(0x102 = JLINKARM_DEBUG_INFO_MTB_ADDR_INDEX)
T6B54 000:141.743   Value=0x00000000
T6B54 000:141.767 - 0.042ms returns 0
T6B54 000:141.784 JLINK_GetDebugInfo(0x103 = JLINKARM_DEBUG_INFO_TPIU_ADDR_INDEX)
T6B54 000:141.800   Value=0xE00F5000
T6B54 000:141.823 - 0.039ms returns 0
T6B54 000:141.841 JLINK_GetDebugInfo(0x104 = JLINKARM_DEBUG_INFO_ITM_ADDR_INDEX)
T6B54 000:141.857   Value=0xE0000000
T6B54 000:141.880 - 0.039ms returns 0
T6B54 000:141.898 JLINK_GetDebugInfo(0x105 = JLINKARM_DEBUG_INFO_DWT_ADDR_INDEX)
T6B54 000:141.914   Value=0xE0001000
T6B54 000:141.938 - 0.040ms returns 0
T6B54 000:141.955 JLINK_GetDebugInfo(0x106 = JLINKARM_DEBUG_INFO_FPB_ADDR_INDEX)
T6B54 000:141.971   Value=0xE0002000
T6B54 000:141.994 - 0.039ms returns 0
T6B54 000:142.011 JLINK_GetDebugInfo(0x107 = JLINKARM_DEBUG_INFO_NVIC_ADDR_INDEX)
T6B54 000:142.028   Value=0xE000E000
T6B54 000:142.053 - 0.041ms returns 0
T6B54 000:142.070 JLINK_GetDebugInfo(0x10C = JLINKARM_DEBUG_INFO_DBG_ADDR_INDEX)
T6B54 000:142.109   Value=0xE000EDF0
T6B54 000:142.134 - 0.063ms returns 0
T6B54 000:142.152 JLINK_GetDebugInfo(0x01 = Unknown)
T6B54 000:142.168   Value=0x00000001
T6B54 000:142.192 - 0.041ms returns 0
T6B54 000:142.210 JLINK_ReadMemU32(0xE000ED00, 0x1 Items)
T6B54 000:142.238   CPU_ReadMem(4 bytes @ 0xE000ED00)
T6B54 000:142.803   Data:  71 C2 1F 41
T6B54 000:142.842   Debug reg: CPUID
T6B54 000:142.872 - 0.661ms returns 1 (0x1)
T6B54 000:142.895 JLINK_GetDebugInfo(0x10F = JLINKARM_DEBUG_INFO_HAS_CORTEX_M_SECURITY_EXT_INDEX)
T6B54 000:142.914   Value=0x00000000
T6B54 000:142.943 - 0.048ms returns 0
T6B54 000:142.964 JLINK_HasError()
T6B54 000:142.986 JLINK_SetResetType(JLINKARM_CM3_RESET_TYPE_NORMAL)
T6B54 000:143.005 - 0.019ms returns JLINKARM_CM3_RESET_TYPE_NORMAL
T6B54 000:143.025 JLINK_Reset()
T6B54 000:143.049   JLINK_GetResetTypeDesc
T6B54 000:143.067   - 0.017ms 
T6B54 000:143.104   Reset type: NORMAL (https://kb.segger.com/J-Link_Reset_Strategies)
T6B54 000:143.131   CPU is running
T6B54 000:143.158   CPU_WriteMem(4 bytes @ 0xE000EDF0)
T6B54 000:143.745   CPU is running
T6B54 000:143.771   CPU_WriteMem(4 bytes @ 0xE000EDFC)
T6B54 000:144.318   Reset: Halt core after reset via DEMCR.VC_CORERESET.
T6B54 000:145.188   Reset: Reset device via AIRCR.SYSRESETREQ.
T6B54 000:145.209   CPU is running
T6B54 000:145.230   CPU_WriteMem(4 bytes @ 0xE000ED0C)
T6B54 000:201.008   CPU_ReadMem(4 bytes @ 0xE000EDF0)
T6B54 000:201.768   CPU_ReadMem(4 bytes @ 0xE000EDF0)
T6B54 000:205.395   CPU_WriteMem(4 bytes @ 0xE000EDFC)
T6B54 000:212.478   CPU_ReadMem(4 bytes @ 0xE000EDF0)
T6B54 000:215.708   CPU_WriteMem(4 bytes @ 0xE0002000)
T6B54 000:216.332   CPU_ReadMem(4 bytes @ 0xE000EDFC)
T6B54 000:216.890   CPU_ReadMem(4 bytes @ 0xE0001000)
T6B54 000:217.438 - 74.411ms 
T6B54 000:217.570 JLINK_HasError()
T6B54 000:217.615 JLINK_ReadReg(R15 (PC))
T6B54 000:217.651 - 0.042ms returns 0x080002AC
T6B54 000:217.684 JLINK_ReadReg(XPSR)
T6B54 000:217.715 - 0.031ms returns 0x01000000
T6B54 000:217.749 JLINK_Halt()
T6B54 000:217.779 - 0.029ms returns 0x00
T6B54 000:217.813 JLINK_ReadMemU32(0xE000EDF0, 0x1 Items)
T6B54 000:217.851   CPU_ReadMem(4 bytes @ 0xE000EDF0)
T6B54 000:218.469   Data:  03 00 03 00
T6B54 000:218.515   Debug reg: DHCSR
T6B54 000:218.555 - 0.742ms returns 1 (0x1)
T6B54 000:218.587 JLINK_WriteU32(0xE000EDF0, 0xA05F0003)
T6B54 000:218.615   Debug reg: DHCSR
T6B54 000:219.239   CPU_WriteMem(4 bytes @ 0xE000EDF0)
T6B54 000:219.894 - 1.306ms returns 0 (0x00000000)
T6B54 000:219.947 JLINK_WriteU32(0xE000EDFC, 0x01000000)
T6B54 000:219.974   Debug reg: DEMCR
T6B54 000:220.025   CPU_WriteMem(4 bytes @ 0xE000EDFC)
T6B54 000:220.604 - 0.656ms returns 0 (0x00000000)
T6B54 000:220.675 JLINK_GetHWStatus(...)
T6B54 000:221.106 - 0.430ms returns 0
T6B54 000:221.146 JLINK_GetNumBPUnits(Type = 0xFFFFFF00)
T6B54 000:221.166 - 0.019ms returns 0x08
T6B54 000:221.186 JLINK_GetNumBPUnits(Type = 0xF0)
T6B54 000:221.205 - 0.018ms returns 0x2000
T6B54 000:221.226 JLINK_GetNumWPUnits()
T6B54 000:221.245 - 0.019ms returns 4
T6B54 000:221.275 JLINK_GetSpeed()
T6B54 000:221.293 - 0.018ms returns 4000
T6B54 000:221.320 JLINK_ReadMemU32(0xE000E004, 0x1 Items)
T6B54 000:221.345   CPU_ReadMem(4 bytes @ 0xE000E004)
T6B54 000:221.885   Data:  04 00 00 00
T6B54 000:221.920 - 0.599ms returns 1 (0x1)
T6B54 000:221.942 JLINK_ReadMemU32(0xE000E004, 0x1 Items)
T6B54 000:221.965   CPU_ReadMem(4 bytes @ 0xE000E004)
T6B54 000:222.502   Data:  04 00 00 00
T6B54 000:222.529 - 0.587ms returns 1 (0x1)
T6B54 000:222.549 JLINK_WriteMemEx(0xE0001000, 0x0000001C Bytes, Flags = 0x02000004)
T6B54 000:222.566   Data:  01 00 00 00 00 00 00 00 00 00 00 00 00 00 00 00 ...
T6B54 000:222.596   CPU_WriteMem(28 bytes @ 0xE0001000)
T6B54 000:223.242 - 0.693ms returns 0x1C
T6B54 000:223.277 JLINK_HasError()
T6B54 000:223.295 JLINK_ReadReg(R15 (PC))
T6B54 000:223.313 - 0.018ms returns 0x080002AC
T6B54 000:223.330 JLINK_ReadReg(XPSR)
T6B54 000:223.345 - 0.015ms returns 0x01000000
T6B54 000:225.182 JLINK_ReadMemEx(0xE0001004, 0x4 Bytes, Flags = 0x02000000)
T6B54 000:225.202   Data:  00 00 00 00
T6B54 000:225.218   Debug reg: DWT_CYCCNT
T6B54 000:225.233 - 0.051ms returns 4 (0x4)
T6B54 000:338.748 JLINK_HasError()
T6B54 000:338.791 JLINK_SetResetType(JLINKARM_CM3_RESET_TYPE_NORMAL)
T6B54 000:338.805 - 0.013ms returns JLINKARM_CM3_RESET_TYPE_NORMAL
T6B54 000:338.818 JLINK_Reset()
T6B54 000:338.836   JLINK_GetResetTypeDesc
T6B54 000:338.848   - 0.011ms 
T6B54 000:338.870   Reset type: NORMAL (https://kb.segger.com/J-Link_Reset_Strategies)
T6B54 000:338.884   CPU_WriteMem(4 bytes @ 0xE000EDF0)
T6B54 000:339.481   CPU_WriteMem(4 bytes @ 0xE000EDFC)
T6B54 000:340.155   Reset: Halt core after reset via DEMCR.VC_CORERESET.
T6B54 000:341.015   Reset: Reset device via AIRCR.SYSRESETREQ.
T6B54 000:341.034   CPU_WriteMem(4 bytes @ 0xE000ED0C)
T6B54 000:396.231   CPU_ReadMem(4 bytes @ 0xE000EDF0)
T6B54 000:396.854   CPU_ReadMem(4 bytes @ 0xE000EDF0)
T6B54 000:397.437   CPU_WriteMem(4 bytes @ 0xE000EDFC)
T6B54 000:404.004   CPU_ReadMem(4 bytes @ 0xE000EDF0)
T6B54 000:407.094   CPU_WriteMem(4 bytes @ 0xE0002000)
T6B54 000:407.636   CPU_ReadMem(4 bytes @ 0xE000EDFC)
T6B54 000:408.116   CPU_ReadMem(4 bytes @ 0xE0001000)
T6B54 000:408.674 - 69.855ms 
T6B54 000:408.721 JLINK_HasError()
T6B54 000:408.768 JLINK_ReadReg(R15 (PC))
T6B54 000:408.783 - 0.014ms returns 0x080002AC
T6B54 000:408.794 JLINK_ReadReg(XPSR)
T6B54 000:408.805 - 0.010ms returns 0x01000000
T6B54 000:409.626 JLINK_ReadMemEx(0x080002AC, 0x3C Bytes, Flags = 0x02000000)
T6B54 000:409.681   CPU_ReadMem(128 bytes @ 0x08000280)
T6B54 000:410.952    -- Updating C cache (128 bytes @ 0x08000280)
T6B54 000:410.999    -- Read from C cache (60 bytes @ 0x080002AC)
T6B54 000:411.040   Data:  06 48 80 47 06 48 00 47 FE E7 FE E7 FE E7 FE E7 ...
T6B54 000:411.078 - 1.452ms returns 60 (0x3C)
T6B54 000:411.107 JLINK_ReadMemEx(0x080002AC, 0x2 Bytes, Flags = 0x02000000)
T6B54 000:411.134    -- Read from C cache (2 bytes @ 0x080002AC)
T6B54 000:411.171   Data:  06 48
T6B54 000:411.210 - 0.103ms returns 2 (0x2)
T6B54 000:411.368 JLINK_ReadMemEx(0x080002AE, 0x2 Bytes, Flags = 0x02000000)
T6B54 000:411.396    -- Read from C cache (2 bytes @ 0x080002AE)
T6B54 000:411.440   Data:  80 47
T6B54 000:411.477 - 0.109ms returns 2 (0x2)
T6B54 000:411.519 JLINK_ReadMemEx(0x080002AE, 0x2 Bytes, Flags = 0x02000000)
T6B54 000:411.545    -- Read from C cache (2 bytes @ 0x080002AE)
T6B54 000:411.582   Data:  80 47
T6B54 000:411.618 - 0.099ms returns 2 (0x2)
T6B54 000:411.645 JLINK_ReadMemEx(0x080002B0, 0x3C Bytes, Flags = 0x02000000)
T6B54 000:411.670    -- Read from C cache (60 bytes @ 0x080002B0)
T6B54 000:411.783   Data:  06 48 00 47 FE E7 FE E7 FE E7 FE E7 FE E7 FE E7 ...
T6B54 000:411.820 - 0.175ms returns 60 (0x3C)
T6B54 000:411.847 JLINK_ReadMemEx(0x080002B0, 0x2 Bytes, Flags = 0x02000000)
T6B54 000:411.872    -- Read from C cache (2 bytes @ 0x080002B0)
T6B54 000:411.909   Data:  06 48
T6B54 000:411.946 - 0.098ms returns 2 (0x2)
T6B54 000:556.061 JLINK_ReadMemEx(0x40020400, 0xCC Bytes, Flags = 0x02000004)
T6B54 000:556.116   CPU_ReadMem(204 bytes @ 0x40020400)
T6B54 000:557.647   Data:  00 00 00 00 00 00 00 00 00 00 00 00 00 00 00 00 ...
T6B54 000:557.686 - 1.624ms returns 204 (0xCC)
T6B54 000:557.717 JLINK_ReadMemEx(0x400204CC, 0x4 Bytes, Flags = 0x02000004)
T6B54 000:557.736   CPU_ReadMem(4 bytes @ 0x400204CC)
T6B54 000:558.238   Data:  00 00 00 00
T6B54 000:558.259 - 0.541ms returns 4 (0x4)
T6B54 000:602.746 JLINK_ReadMemEx(0x40011000, 0x14 Bytes, Flags = 0x02000004)
T6B54 000:602.809   CPU_ReadMem(20 bytes @ 0x40011000)
T6B54 000:603.456   Data:  00 00 00 00 00 00 00 00 00 00 00 00 00 00 00 00 ...
T6B54 000:603.490 - 0.744ms returns 20 (0x14)
T6B54 000:603.509 JLINK_ReadMemEx(0x40011014, 0x4 Bytes, Flags = 0x02000004)
T6B54 000:603.524   CPU_ReadMem(4 bytes @ 0x40011014)
T6B54 000:604.055   Data:  00 00 00 00
T6B54 000:604.074 - 0.564ms returns 4 (0x4)
T6B54 000:604.087 JLINK_ReadMemEx(0x4001101C, 0x4 Bytes, Flags = 0x02000004)
T6B54 000:604.099   CPU_ReadMem(4 bytes @ 0x4001101C)
T6B54 000:604.745   Data:  00 00 00 00
T6B54 000:604.763 - 0.676ms returns 4 (0x4)
T6B54 000:604.776 JLINK_ReadMemEx(0x40011024, 0x8 Bytes, Flags = 0x02000004)
T6B54 000:604.788   CPU_ReadMem(8 bytes @ 0x40011024)
T6B54 000:605.261   Data:  00 00 00 00 00 00 00 00
T6B54 000:605.284 - 0.507ms returns 8 (0x8)
T6B54 000:605.297 JLINK_ReadMemEx(0x4001102C, 0x4 Bytes, Flags = 0x02000004)
T6B54 000:605.310   CPU_ReadMem(4 bytes @ 0x4001102C)
T6B54 000:605.800   Data:  00 00 00 00
T6B54 000:605.819 - 0.522ms returns 4 (0x4)
T6B54 001:906.286 JLINK_ReadMemEx(0x080002AC, 0x3C Bytes, Flags = 0x02000000)
T6B54 001:906.326    -- Read from C cache (60 bytes @ 0x080002AC)
T6B54 001:906.344   Data:  06 48 80 47 06 48 00 47 FE E7 FE E7 FE E7 FE E7 ...
T6B54 001:906.361 - 0.075ms returns 60 (0x3C)
T6B54 001:906.380 JLINK_ReadMemEx(0x080002AC, 0x2 Bytes, Flags = 0x02000000)
T6B54 001:906.391    -- Read from C cache (2 bytes @ 0x080002AC)
T6B54 001:906.406   Data:  06 48
T6B54 001:906.422 - 0.041ms returns 2 (0x2)
T6B54 001:906.433 JLINK_ReadMemEx(0x080002AE, 0x2 Bytes, Flags = 0x02000000)
T6B54 001:906.444    -- Read from C cache (2 bytes @ 0x080002AE)
T6B54 001:906.458   Data:  80 47
T6B54 001:906.473 - 0.040ms returns 2 (0x2)
T6B54 001:906.490 JLINK_ReadMemEx(0x080002AE, 0x2 Bytes, Flags = 0x02000000)
T6B54 001:906.500    -- Read from C cache (2 bytes @ 0x080002AE)
T6B54 001:906.515   Data:  80 47
T6B54 001:906.530 - 0.040ms returns 2 (0x2)
T6B54 001:906.541 JLINK_ReadMemEx(0x080002B0, 0x3C Bytes, Flags = 0x02000000)
T6B54 001:906.551    -- Read from C cache (60 bytes @ 0x080002B0)
T6B54 001:906.567   Data:  06 48 00 47 FE E7 FE E7 FE E7 FE E7 FE E7 FE E7 ...
T6B54 001:906.582 - 0.040ms returns 60 (0x3C)
T6B54 001:906.593 JLINK_ReadMemEx(0x080002B0, 0x2 Bytes, Flags = 0x02000000)
T6B54 001:906.603    -- Read from C cache (2 bytes @ 0x080002B0)
T6B54 001:906.618   Data:  06 48
T6B54 001:906.632 - 0.040ms returns 2 (0x2)
T6B54 002:163.920 JLINK_HasError()
T6B54 002:163.974 JLINK_ReadReg(R0)
T6B54 002:164.596 - 0.621ms returns 0x00000000
T6B54 002:164.618 JLINK_ReadReg(R1)
T6B54 002:164.630 - 0.011ms returns 0x00000000
T6B54 002:164.642 JLINK_ReadReg(R2)
T6B54 002:164.653 - 0.011ms returns 0x00000000
T6B54 002:164.664 JLINK_ReadReg(R3)
T6B54 002:164.674 - 0.010ms returns 0x00000000
T6B54 002:164.686 JLINK_ReadReg(R4)
T6B54 002:164.696 - 0.010ms returns 0x00000000
T6B54 002:164.708 JLINK_ReadReg(R5)
T6B54 002:164.718 - 0.010ms returns 0x00000000
T6B54 002:164.729 JLINK_ReadReg(R6)
T6B54 002:164.740 - 0.010ms returns 0x00000000
T6B54 002:164.754 JLINK_ReadReg(R7)
T6B54 002:164.766 - 0.011ms returns 0x00000000
T6B54 002:164.784 JLINK_ReadReg(R8)
T6B54 002:164.795 - 0.017ms returns 0x00000000
T6B54 002:164.806 JLINK_ReadReg(R9)
T6B54 002:164.816 - 0.010ms returns 0x00000000
T6B54 002:164.828 JLINK_ReadReg(R10)
T6B54 002:164.838 - 0.010ms returns 0x00000000
T6B54 002:164.854 JLINK_ReadReg(R11)
T6B54 002:164.865 - 0.011ms returns 0x00000000
T6B54 002:164.877 JLINK_ReadReg(R12)
T6B54 002:164.888 - 0.011ms returns 0x00000000
T6B54 002:164.899 JLINK_ReadReg(R13 (SP))
T6B54 002:164.910 - 0.010ms returns 0x2400A1F0
T6B54 002:164.921 JLINK_ReadReg(R14)
T6B54 002:164.932 - 0.010ms returns 0xFFFFFFFF
T6B54 002:164.943 JLINK_ReadReg(R15 (PC))
T6B54 002:164.954 - 0.011ms returns 0x080002AC
T6B54 002:164.965 JLINK_ReadReg(XPSR)
T6B54 002:164.975 - 0.010ms returns 0x01000000
T6B54 002:164.987 JLINK_ReadReg(MSP)
T6B54 002:164.997 - 0.010ms returns 0x2400A1F0
T6B54 002:165.008 JLINK_ReadReg(PSP)
T6B54 002:165.018 - 0.010ms returns 0x00000000
T6B54 002:165.030 JLINK_ReadReg(CFBP)
T6B54 002:165.040 - 0.010ms returns 0x00000000
T6B54 002:165.052 JLINK_ReadReg(FPSCR)
T6B54 002:168.796 - 3.736ms returns 0x00000000
T6B54 002:168.845 JLINK_ReadReg(FPS0)
T6B54 002:168.859 - 0.014ms returns 0x00000000
T6B54 002:168.871 JLINK_ReadReg(FPS1)
T6B54 002:168.882 - 0.011ms returns 0x00000000
T6B54 002:168.895 JLINK_ReadReg(FPS2)
T6B54 002:168.905 - 0.010ms returns 0x00000000
T6B54 002:168.916 JLINK_ReadReg(FPS3)
T6B54 002:168.927 - 0.010ms returns 0x00000000
T6B54 002:168.938 JLINK_ReadReg(FPS4)
T6B54 002:168.949 - 0.010ms returns 0x00000000
T6B54 002:168.963 JLINK_ReadReg(FPS5)
T6B54 002:168.974 - 0.011ms returns 0x00000000
T6B54 002:168.986 JLINK_ReadReg(FPS6)
T6B54 002:168.997 - 0.010ms returns 0x00000000
T6B54 002:169.009 JLINK_ReadReg(FPS7)
T6B54 002:169.020 - 0.011ms returns 0x00000000
T6B54 002:169.032 JLINK_ReadReg(FPS8)
T6B54 002:169.043 - 0.010ms returns 0x00000000
T6B54 002:169.054 JLINK_ReadReg(FPS9)
T6B54 002:169.065 - 0.010ms returns 0x00000000
T6B54 002:169.077 JLINK_ReadReg(FPS10)
T6B54 002:169.088 - 0.011ms returns 0x00000000
T6B54 002:169.099 JLINK_ReadReg(FPS11)
T6B54 002:169.110 - 0.011ms returns 0x00000000
T6B54 002:169.122 JLINK_ReadReg(FPS12)
T6B54 002:169.133 - 0.010ms returns 0x00000000
T6B54 002:169.145 JLINK_ReadReg(FPS13)
T6B54 002:169.156 - 0.011ms returns 0x00000000
T6B54 002:169.167 JLINK_ReadReg(FPS14)
T6B54 002:169.178 - 0.010ms returns 0x00000000
T6B54 002:169.190 JLINK_ReadReg(FPS15)
T6B54 002:169.200 - 0.010ms returns 0xFFFFFFFF
T6B54 002:169.212 JLINK_ReadReg(FPS16)
T6B54 002:169.223 - 0.011ms returns 0x00000000
T6B54 002:169.234 JLINK_ReadReg(FPS17)
T6B54 002:169.245 - 0.010ms returns 0x00000000
T6B54 002:169.256 JLINK_ReadReg(FPS18)
T6B54 002:169.267 - 0.010ms returns 0x00000000
T6B54 002:169.279 JLINK_ReadReg(FPS19)
T6B54 002:169.290 - 0.010ms returns 0x00000000
T6B54 002:169.302 JLINK_ReadReg(FPS20)
T6B54 002:169.313 - 0.011ms returns 0x00000000
T6B54 002:169.324 JLINK_ReadReg(FPS21)
T6B54 002:169.335 - 0.011ms returns 0x00000000
T6B54 002:169.347 JLINK_ReadReg(FPS22)
T6B54 002:169.358 - 0.011ms returns 0x00000000
T6B54 002:169.370 JLINK_ReadReg(FPS23)
T6B54 002:169.381 - 0.010ms returns 0x00000000
T6B54 002:169.392 JLINK_ReadReg(FPS24)
T6B54 002:169.403 - 0.010ms returns 0x00000000
T6B54 002:169.414 JLINK_ReadReg(FPS25)
T6B54 002:169.425 - 0.010ms returns 0x00000000
T6B54 002:169.437 JLINK_ReadReg(FPS26)
T6B54 002:169.450 - 0.013ms returns 0x00000000
T6B54 002:169.461 JLINK_ReadReg(FPS27)
T6B54 002:169.471 - 0.010ms returns 0x00000000
T6B54 002:169.482 JLINK_ReadReg(FPS28)
T6B54 002:169.492 - 0.010ms returns 0x00000000
T6B54 002:169.504 JLINK_ReadReg(FPS29)
T6B54 002:169.514 - 0.010ms returns 0x00000000
T6B54 002:169.525 JLINK_ReadReg(FPS30)
T6B54 002:169.535 - 0.010ms returns 0x00000000
T6B54 002:169.547 JLINK_ReadReg(FPS31)
T6B54 002:169.557 - 0.010ms returns 0xFFFFFFFF
T6B54 002:169.596 JLINK_ReadMemEx(0x2400000C, 0x4 Bytes, Flags = 0x02000000)
T6B54 002:169.620   CPU_ReadMem(64 bytes @ 0x24000000)
T6B54 002:170.548    -- Updating C cache (64 bytes @ 0x24000000)
T6B54 002:170.578    -- Read from C cache (4 bytes @ 0x2400000C)
T6B54 002:170.595   Data:  00 90 D0 03
T6B54 002:170.612 - 1.016ms returns 4 (0x4)
T6B54 002:177.240 JLINK_ReadMemEx(0x2400000C, 0x4 Bytes, Flags = 0x02000000)
T6B54 002:177.292    -- Read from C cache (4 bytes @ 0x2400000C)
T6B54 002:177.310   Data:  00 90 D0 03
T6B54 002:177.327 - 0.086ms returns 4 (0x4)
T6B54 002:177.370 JLINK_ReadMemEx(0x2400000C, 0x4 Bytes, Flags = 0x02000000)
T6B54 002:177.382    -- Read from C cache (4 bytes @ 0x2400000C)
T6B54 002:177.397   Data:  00 90 D0 03
T6B54 002:177.412 - 0.041ms returns 4 (0x4)
T6B54 002:181.951 JLINK_ReadMemEx(0x24000010, 0x4 Bytes, Flags = 0x02000000)
T6B54 002:182.004    -- Read from C cache (4 bytes @ 0x24000010)
T6B54 002:182.023   Data:  00 90 D0 03
T6B54 002:182.040 - 0.090ms returns 4 (0x4)
T6B54 002:182.375 JLINK_ReadMemEx(0x24000010, 0x4 Bytes, Flags = 0x02000000)
T6B54 002:182.399    -- Read from C cache (4 bytes @ 0x24000010)
T6B54 002:182.417   Data:  00 90 D0 03
T6B54 002:182.434 - 0.059ms returns 4 (0x4)
T6B54 002:182.464 JLINK_ReadMemEx(0x24000010, 0x4 Bytes, Flags = 0x02000000)
T6B54 002:182.476    -- Read from C cache (4 bytes @ 0x24000010)
T6B54 002:182.492   Data:  00 90 D0 03
T6B54 002:182.508 - 0.044ms returns 4 (0x4)
T6B54 002:207.104 JLINK_ReadMemEx(0x24000010, 0x4 Bytes, Flags = 0x02000000)
T6B54 002:207.153    -- Read from C cache (4 bytes @ 0x24000010)
T6B54 002:207.171   Data:  00 90 D0 03
T6B54 002:207.188 - 0.084ms returns 4 (0x4)
T6B54 002:207.402 JLINK_ReadMemEx(0x24000010, 0x4 Bytes, Flags = 0x02000000)
T6B54 002:207.417    -- Read from C cache (4 bytes @ 0x24000010)
T6B54 002:207.432   Data:  00 90 D0 03
T6B54 002:207.448 - 0.046ms returns 4 (0x4)
T6B54 002:207.472 JLINK_ReadMemEx(0x24000010, 0x4 Bytes, Flags = 0x02000000)
T6B54 002:207.484    -- Read from C cache (4 bytes @ 0x24000010)
T6B54 002:207.500   Data:  00 90 D0 03
T6B54 002:207.516 - 0.043ms returns 4 (0x4)
T6B54 002:218.408 JLINK_ReadMemEx(0x240001E0, 0xF Bytes, Flags = 0x02000000)
T6B54 002:218.482   CPU_ReadMem(64 bytes @ 0x240001C0)
T6B54 002:219.330    -- Updating C cache (64 bytes @ 0x240001C0)
T6B54 002:219.391    -- Read from C cache (15 bytes @ 0x240001E0)
T6B54 002:219.410   Data:  00 00 00 00 00 00 00 00 00 00 00 00 00 00 00
T6B54 002:219.428 - 1.020ms returns 15 (0xF)
T7DAC 002:256.127 JLINK_ReadMemEx(0x080002AC, 0x2 Bytes, Flags = 0x02000000)
T7DAC 002:256.185    -- Read from C cache (2 bytes @ 0x080002AC)
T7DAC 002:256.205   Data:  06 48
T7DAC 002:256.223 - 0.096ms returns 2 (0x2)
T7DAC 002:256.236 JLINK_HasError()
T7DAC 002:256.251 JLINK_SetBPEx(Addr = 0x08008B04, Type = 0xFFFFFFF2)
T7DAC 002:256.267 - 0.015ms returns 0x00000001
T7DAC 002:256.279 JLINK_HasError()
T7DAC 002:256.290 JLINK_HasError()
T7DAC 002:256.302 JLINK_Go()
T7DAC 002:256.321   CPU_WriteMem(4 bytes @ 0xE0002000)
T7DAC 002:256.965   CPU_ReadMem(4 bytes @ 0xE0001000)
T7DAC 002:257.592   CPU_WriteMem(4 bytes @ 0xE0002008)
T7DAC 002:257.624   CPU_WriteMem(4 bytes @ 0xE000200C)
T7DAC 002:257.640   CPU_WriteMem(4 bytes @ 0xE0002010)
T7DAC 002:257.656   CPU_WriteMem(4 bytes @ 0xE0002014)
T7DAC 002:257.672   CPU_WriteMem(4 bytes @ 0xE0002018)
T7DAC 002:257.687   CPU_WriteMem(4 bytes @ 0xE000201C)
T7DAC 002:257.703   CPU_WriteMem(4 bytes @ 0xE0002020)
T7DAC 002:257.718   CPU_WriteMem(4 bytes @ 0xE0002024)
T7DAC 002:259.498   CPU_WriteMem(4 bytes @ 0xE0001004)
T7DAC 002:261.572   Memory map 'after startup completion point' is active
T7DAC 002:261.600 - 5.297ms 
T7DAC 002:362.974 JLINK_HasError()
T7DAC 002:363.009 JLINK_IsHalted()
T7DAC 002:365.519 - 2.508ms returns TRUE
T7DAC 002:365.553 JLINK_HasError()
T7DAC 002:365.567 JLINK_Halt()
T7DAC 002:365.578 - 0.011ms returns 0x00
T7DAC 002:365.590 JLINK_IsHalted()
T7DAC 002:365.600 - 0.010ms returns TRUE
T7DAC 002:365.614 JLINK_IsHalted()
T7DAC 002:365.625 - 0.011ms returns TRUE
T7DAC 002:365.638 JLINK_IsHalted()
T7DAC 002:365.652 - 0.014ms returns TRUE
T7DAC 002:365.668 JLINK_HasError()
T7DAC 002:365.682 JLINK_ReadReg(R15 (PC))
T7DAC 002:365.695 - 0.013ms returns 0x08008B04
T7DAC 002:365.708 JLINK_ReadReg(XPSR)
T7DAC 002:365.720 - 0.012ms returns 0x61000000
T7DAC 002:365.765 JLINK_HasError()
T7DAC 002:365.791 JLINK_ClrBPEx(BPHandle = 0x00000001)
T7DAC 002:365.803 - 0.012ms returns 0x00
T7DAC 002:365.815 JLINK_HasError()
T7DAC 002:365.826 JLINK_HasError()
T7DAC 002:365.838 JLINK_ReadMemU32(0xE000ED30, 0x1 Items)
T7DAC 002:365.854   CPU_ReadMem(4 bytes @ 0xE000ED30)
T7DAC 002:366.400   Data:  02 00 00 00
T7DAC 002:366.428 - 0.590ms returns 1 (0x1)
T7DAC 002:366.443 JLINK_ReadMemU32(0xE0001028, 0x1 Items)
T7DAC 002:366.459   CPU_ReadMem(4 bytes @ 0xE0001028)
T7DAC 002:366.992   Data:  00 00 00 00
T7DAC 002:367.011   Debug reg: DWT_FUNC[0]
T7DAC 002:367.027 - 0.584ms returns 1 (0x1)
T7DAC 002:367.040 JLINK_ReadMemU32(0xE0001038, 0x1 Items)
T7DAC 002:367.053   CPU_ReadMem(4 bytes @ 0xE0001038)
T7DAC 002:367.604   Data:  00 02 00 00
T7DAC 002:367.627   Debug reg: DWT_FUNC[1]
T7DAC 002:367.645 - 0.605ms returns 1 (0x1)
T7DAC 002:367.660 JLINK_ReadMemU32(0xE0001048, 0x1 Items)
T7DAC 002:367.676   CPU_ReadMem(4 bytes @ 0xE0001048)
T7DAC 002:368.238   Data:  00 00 00 00
T7DAC 002:368.263   Debug reg: DWT_FUNC[2]
T7DAC 002:368.280 - 0.620ms returns 1 (0x1)
T7DAC 002:368.293 JLINK_ReadMemU32(0xE0001058, 0x1 Items)
T7DAC 002:368.306   CPU_ReadMem(4 bytes @ 0xE0001058)
T7DAC 002:368.797   Data:  00 00 00 00
T7DAC 002:368.814   Debug reg: DWT_FUNC[3]
T7DAC 002:368.830 - 0.536ms returns 1 (0x1)
T7DAC 002:368.869 JLINK_HasError()
T7DAC 002:368.881 JLINK_ReadReg(R0)
T7DAC 002:368.893 - 0.011ms returns 0x08008B05
T7DAC 002:368.904 JLINK_ReadReg(R1)
T7DAC 002:368.915 - 0.010ms returns 0x2400A1F0
T7DAC 002:368.926 JLINK_ReadReg(R2)
T7DAC 002:368.937 - 0.010ms returns 0x00000000
T7DAC 002:368.948 JLINK_ReadReg(R3)
T7DAC 002:368.962 - 0.014ms returns 0x080088DD
T7DAC 002:368.974 JLINK_ReadReg(R4)
T7DAC 002:368.985 - 0.010ms returns 0x08008D50
T7DAC 002:368.996 JLINK_ReadReg(R5)
T7DAC 002:369.007 - 0.010ms returns 0x08008D50
T7DAC 002:369.018 JLINK_ReadReg(R6)
T7DAC 002:369.029 - 0.010ms returns 0x00000000
T7DAC 002:369.040 JLINK_ReadReg(R7)
T7DAC 002:369.051 - 0.010ms returns 0x00000000
T7DAC 002:369.062 JLINK_ReadReg(R8)
T7DAC 002:369.073 - 0.010ms returns 0x00000000
T7DAC 002:369.084 JLINK_ReadReg(R9)
T7DAC 002:369.094 - 0.010ms returns 0x00000000
T7DAC 002:369.106 JLINK_ReadReg(R10)
T7DAC 002:369.116 - 0.010ms returns 0x00000000
T7DAC 002:369.127 JLINK_ReadReg(R11)
T7DAC 002:369.138 - 0.010ms returns 0x00000000
T7DAC 002:369.149 JLINK_ReadReg(R12)
T7DAC 002:369.160 - 0.010ms returns 0x00000000
T7DAC 002:369.171 JLINK_ReadReg(R13 (SP))
T7DAC 002:369.182 - 0.010ms returns 0x2400A1F0
T7DAC 002:369.203 JLINK_ReadReg(R14)
T7DAC 002:369.215 - 0.012ms returns 0x08000411
T7DAC 002:369.232 JLINK_ReadReg(R15 (PC))
T7DAC 002:369.248 - 0.016ms returns 0x08008B04
T7DAC 002:369.262 JLINK_ReadReg(XPSR)
T7DAC 002:369.278 - 0.015ms returns 0x61000000
T7DAC 002:369.292 JLINK_ReadReg(MSP)
T7DAC 002:369.303 - 0.011ms returns 0x2400A1F0
T7DAC 002:369.318 JLINK_ReadReg(PSP)
T7DAC 002:369.331 - 0.013ms returns 0x00000000
T7DAC 002:369.345 JLINK_ReadReg(CFBP)
T7DAC 002:369.360 - 0.014ms returns 0x00000000
T7DAC 002:369.375 JLINK_ReadReg(FPSCR)
T7DAC 002:372.897 - 3.521ms returns 0x00000000
T7DAC 002:372.926 JLINK_ReadReg(FPS0)
T7DAC 002:372.941 - 0.015ms returns 0x00000000
T7DAC 002:372.953 JLINK_ReadReg(FPS1)
T7DAC 002:372.964 - 0.011ms returns 0x00000000
T7DAC 002:372.975 JLINK_ReadReg(FPS2)
T7DAC 002:372.986 - 0.010ms returns 0x00000000
T7DAC 002:372.998 JLINK_ReadReg(FPS3)
T7DAC 002:373.010 - 0.011ms returns 0x00000000
T7DAC 002:373.022 JLINK_ReadReg(FPS4)
T7DAC 002:373.033 - 0.011ms returns 0x00000000
T7DAC 002:373.046 JLINK_ReadReg(FPS5)
T7DAC 002:373.057 - 0.011ms returns 0x00000000
T7DAC 002:373.069 JLINK_ReadReg(FPS6)
T7DAC 002:373.080 - 0.011ms returns 0x00000000
T7DAC 002:373.137 JLINK_ReadReg(FPS7)
T7DAC 002:373.150 - 0.013ms returns 0x00000000
T7DAC 002:373.162 JLINK_ReadReg(FPS8)
T7DAC 002:373.174 - 0.011ms returns 0x00000000
T7DAC 002:373.186 JLINK_ReadReg(FPS9)
T7DAC 002:373.196 - 0.010ms returns 0x00000000
T7DAC 002:373.209 JLINK_ReadReg(FPS10)
T7DAC 002:373.220 - 0.010ms returns 0x00000000
T7DAC 002:373.232 JLINK_ReadReg(FPS11)
T7DAC 002:373.244 - 0.011ms returns 0x00000000
T7DAC 002:373.255 JLINK_ReadReg(FPS12)
T7DAC 002:373.268 - 0.012ms returns 0x00000000
T7DAC 002:373.280 JLINK_ReadReg(FPS13)
T7DAC 002:373.291 - 0.011ms returns 0x00000000
T7DAC 002:373.304 JLINK_ReadReg(FPS14)
T7DAC 002:373.315 - 0.011ms returns 0x00000000
T7DAC 002:373.326 JLINK_ReadReg(FPS15)
T7DAC 002:373.336 - 0.010ms returns 0xFFFFFFFF
T7DAC 002:373.348 JLINK_ReadReg(FPS16)
T7DAC 002:373.359 - 0.011ms returns 0x00000000
T7DAC 002:373.371 JLINK_ReadReg(FPS17)
T7DAC 002:373.382 - 0.011ms returns 0x00000000
T7DAC 002:373.411 JLINK_ReadReg(FPS18)
T7DAC 002:373.425 - 0.014ms returns 0x00000000
T7DAC 002:373.438 JLINK_ReadReg(FPS19)
T7DAC 002:373.449 - 0.010ms returns 0x00000000
T7DAC 002:373.461 JLINK_ReadReg(FPS20)
T7DAC 002:373.472 - 0.011ms returns 0x00000000
T7DAC 002:373.484 JLINK_ReadReg(FPS21)
T7DAC 002:373.495 - 0.010ms returns 0x00000000
T7DAC 002:373.506 JLINK_ReadReg(FPS22)
T7DAC 002:373.517 - 0.011ms returns 0x00000000
T7DAC 002:373.529 JLINK_ReadReg(FPS23)
T7DAC 002:373.541 - 0.011ms returns 0x00000000
T7DAC 002:373.552 JLINK_ReadReg(FPS24)
T7DAC 002:373.564 - 0.011ms returns 0x00000000
T7DAC 002:373.576 JLINK_ReadReg(FPS25)
T7DAC 002:373.586 - 0.010ms returns 0x00000000
T7DAC 002:373.598 JLINK_ReadReg(FPS26)
T7DAC 002:373.609 - 0.011ms returns 0x00000000
T7DAC 002:373.621 JLINK_ReadReg(FPS27)
T7DAC 002:373.632 - 0.010ms returns 0x00000000
T7DAC 002:373.643 JLINK_ReadReg(FPS28)
T7DAC 002:373.654 - 0.010ms returns 0x00000000
T7DAC 002:373.666 JLINK_ReadReg(FPS29)
T7DAC 002:373.677 - 0.010ms returns 0x00000000
T7DAC 002:373.688 JLINK_ReadReg(FPS30)
T7DAC 002:373.699 - 0.011ms returns 0x00000000
T7DAC 002:373.711 JLINK_ReadReg(FPS31)
T7DAC 002:373.722 - 0.010ms returns 0xFFFFFFFF
T6B54 002:374.086 JLINK_ReadMemEx(0xE000ED28, 0x4 Bytes, Flags = 0x02000000)
T6B54 002:374.117   CPU_ReadMem(4 bytes @ 0xE000ED28)
T6B54 002:374.677   Data:  00 00 00 00
T6B54 002:374.698 - 0.613ms returns 4 (0x4)
T6B54 002:376.177 JLINK_HasError()
T6B54 002:376.201 JLINK_ReadMemU32(0xE0001004, 0x1 Items)
T6B54 002:376.220   CPU_ReadMem(4 bytes @ 0xE0001004)
T6B54 002:376.768   Data:  2B 7D 00 00
T6B54 002:376.799   Debug reg: DWT_CYCCNT
T6B54 002:376.816 - 0.614ms returns 1 (0x1)
T6B54 002:376.905 JLINK_ReadMemEx(0x2400000C, 0x4 Bytes, Flags = 0x02000000)
T6B54 002:376.922   CPU_ReadMem(64 bytes @ 0x24000000)
T6B54 002:377.770    -- Updating C cache (64 bytes @ 0x24000000)
T6B54 002:377.798    -- Read from C cache (4 bytes @ 0x2400000C)
T6B54 002:377.816   Data:  00 90 D0 03
T6B54 002:377.833 - 0.928ms returns 4 (0x4)
T6B54 002:377.858 JLINK_ReadMemEx(0x24000010, 0x4 Bytes, Flags = 0x02000000)
T6B54 002:377.872    -- Read from C cache (4 bytes @ 0x24000010)
T6B54 002:377.888   Data:  00 90 D0 03
T6B54 002:377.903 - 0.044ms returns 4 (0x4)
T6B54 002:379.477 JLINK_ReadMemEx(0x24000010, 0x4 Bytes, Flags = 0x02000000)
T6B54 002:379.510    -- Read from C cache (4 bytes @ 0x24000010)
T6B54 002:379.526   Data:  00 90 D0 03
T6B54 002:379.542 - 0.065ms returns 4 (0x4)
T6B54 002:379.914 JLINK_ReadMemEx(0x240001E0, 0xF Bytes, Flags = 0x02000000)
T6B54 002:379.935   CPU_ReadMem(64 bytes @ 0x240001C0)
T6B54 002:380.762    -- Updating C cache (64 bytes @ 0x240001C0)
T6B54 002:380.788    -- Read from C cache (15 bytes @ 0x240001E0)
T6B54 002:380.807   Data:  00 00 00 00 00 00 00 00 00 00 00 00 00 00 00
T6B54 002:380.824 - 0.910ms returns 15 (0xF)
T6B54 002:380.865 JLINK_ReadMemEx(0x40020400, 0xCC Bytes, Flags = 0x02000004)
T6B54 002:380.881   CPU_ReadMem(204 bytes @ 0x40020400)
T6B54 002:382.264   Data:  00 00 00 00 00 00 00 00 00 00 00 00 00 00 00 00 ...
T6B54 002:382.299 - 1.433ms returns 204 (0xCC)
T6B54 002:382.317 JLINK_ReadMemEx(0x400204CC, 0x4 Bytes, Flags = 0x02000004)
T6B54 002:382.333   CPU_ReadMem(4 bytes @ 0x400204CC)
T6B54 002:382.850   Data:  00 00 00 00
T6B54 002:382.873 - 0.556ms returns 4 (0x4)
T6B54 002:383.284 JLINK_ReadMemEx(0x40011000, 0x14 Bytes, Flags = 0x02000004)
T6B54 002:383.302   CPU_ReadMem(20 bytes @ 0x40011000)
T6B54 002:383.949   Data:  00 00 00 00 00 00 00 00 00 00 00 00 00 00 00 00 ...
T6B54 002:383.974 - 0.689ms returns 20 (0x14)
T6B54 002:383.989 JLINK_ReadMemEx(0x40011014, 0x4 Bytes, Flags = 0x02000004)
T6B54 002:384.004   CPU_ReadMem(4 bytes @ 0x40011014)
T6B54 002:384.592   Data:  00 00 00 00
T6B54 002:384.642 - 0.653ms returns 4 (0x4)
T6B54 002:384.655 JLINK_ReadMemEx(0x4001101C, 0x4 Bytes, Flags = 0x02000004)
T6B54 002:384.667   CPU_ReadMem(4 bytes @ 0x4001101C)
T6B54 002:385.230   Data:  00 00 00 00
T6B54 002:385.257 - 0.601ms returns 4 (0x4)
T6B54 002:385.274 JLINK_ReadMemEx(0x40011024, 0x8 Bytes, Flags = 0x02000004)
T6B54 002:385.290   CPU_ReadMem(8 bytes @ 0x40011024)
T6B54 002:385.824   Data:  00 00 00 00 00 00 00 00
T6B54 002:385.849 - 0.575ms returns 8 (0x8)
T6B54 002:385.866 JLINK_ReadMemEx(0x4001102C, 0x4 Bytes, Flags = 0x02000004)
T6B54 002:385.882   CPU_ReadMem(4 bytes @ 0x4001102C)
T6B54 002:386.358   Data:  00 00 00 00
T6B54 002:386.375 - 0.509ms returns 4 (0x4)
T6B54 002:389.812 JLINK_ReadMemEx(0x08008B04, 0x3C Bytes, Flags = 0x02000000)
T6B54 002:389.846   CPU_ReadMem(64 bytes @ 0x08008B00)
T6B54 002:390.706    -- Updating C cache (64 bytes @ 0x08008B00)
T6B54 002:390.738    -- Read from C cache (60 bytes @ 0x08008B04)
T6B54 002:390.758   Data:  00 BF 00 24 00 BF 00 BF 64 48 00 68 00 F4 00 30 ...
T6B54 002:390.775 - 0.963ms returns 60 (0x3C)
T6B54 002:390.789 JLINK_ReadMemEx(0x08008B04, 0x2 Bytes, Flags = 0x02000000)
T6B54 002:390.802    -- Read from C cache (2 bytes @ 0x08008B04)
T6B54 002:390.818   Data:  00 BF
T6B54 002:390.835 - 0.045ms returns 2 (0x2)
T6B54 002:390.848 JLINK_ReadMemEx(0x08008B06, 0x2 Bytes, Flags = 0x02000000)
T6B54 002:390.859    -- Read from C cache (2 bytes @ 0x08008B06)
T6B54 002:390.875   Data:  00 24
T6B54 002:390.892 - 0.044ms returns 2 (0x2)
T6B54 002:390.913 JLINK_ReadMemEx(0x08008B06, 0x2 Bytes, Flags = 0x02000000)
T6B54 002:390.925    -- Read from C cache (2 bytes @ 0x08008B06)
T6B54 002:390.941   Data:  00 24
T6B54 002:390.958 - 0.045ms returns 2 (0x2)
T6B54 002:390.970 JLINK_ReadMemEx(0x08008B08, 0x3C Bytes, Flags = 0x02000000)
T6B54 002:390.982   CPU_ReadMem(64 bytes @ 0x08008B40)
T6B54 002:391.851    -- Updating C cache (64 bytes @ 0x08008B40)
T6B54 002:391.881    -- Read from C cache (60 bytes @ 0x08008B08)
T6B54 002:391.900   Data:  00 BF 00 BF 64 48 00 68 00 F4 00 30 00 B1 39 E0 ...
T6B54 002:391.918 - 0.948ms returns 60 (0x3C)
T6B54 002:391.937 JLINK_ReadMemEx(0x08008B08, 0x2 Bytes, Flags = 0x02000000)
T6B54 002:391.950    -- Read from C cache (2 bytes @ 0x08008B08)
T6B54 002:391.965   Data:  00 BF
T6B54 002:391.981 - 0.044ms returns 2 (0x2)
T7DAC 005:397.881 JLINK_ReadMemEx(0x08008B04, 0x2 Bytes, Flags = 0x02000000)
T7DAC 005:397.928    -- Read from C cache (2 bytes @ 0x08008B04)
T7DAC 005:397.951   Data:  00 BF
T7DAC 005:397.973 - 0.091ms returns 2 (0x2)
T7DAC 005:397.988 JLINK_HasError()
T7DAC 005:398.004 JLINK_HasError()
T7DAC 005:398.019 JLINK_Go()
T7DAC 005:398.621   CPU_ReadMem(4 bytes @ 0xE0001000)
T7DAC 005:399.440   CPU_WriteMem(4 bytes @ 0xE0002008)
T7DAC 005:400.760 - 2.740ms 
T7DAC 005:502.260 JLINK_HasError()
T7DAC 005:502.318 JLINK_IsHalted()
T7DAC 005:502.987 - 0.667ms returns FALSE
T7DAC 005:603.819 JLINK_HasError()
T7DAC 005:603.974 JLINK_IsHalted()
T7DAC 005:604.852 - 0.875ms returns FALSE
T7DAC 005:705.442 JLINK_HasError()
T7DAC 005:705.519 JLINK_IsHalted()
T7DAC 005:706.194 - 0.675ms returns FALSE
T7DAC 005:806.644 JLINK_HasError()
T7DAC 005:806.849 JLINK_IsHalted()
T7DAC 005:807.961 - 1.109ms returns FALSE
T7DAC 005:908.304 JLINK_HasError()
T7DAC 005:908.401 JLINK_IsHalted()
T7DAC 005:909.003 - 0.601ms returns FALSE
T7DAC 006:009.781 JLINK_HasError()
T7DAC 006:009.908 JLINK_HasError()
T7DAC 006:009.961 JLINK_ReadMemU32(0xE0001004, 0x1 Items)
T7DAC 006:010.034   CPU_ReadMem(4 bytes @ 0xE0001004)
T7DAC 006:011.010   Data:  9B 8D 89 0E
T7DAC 006:011.144   Debug reg: DWT_CYCCNT
T7DAC 006:011.217 - 1.256ms returns 1 (0x1)
T6B54 006:012.461 JLINK_ReadMemEx(0x2400000C, 0x4 Bytes, Flags = 0x02000000)
T6B54 006:012.562   CPU_ReadMem(4 bytes @ 0x2400000C)
T6B54 006:013.467   Data:  00 84 D7 17
T6B54 006:013.549 - 1.088ms returns 4 (0x4)
T6B54 006:015.433 JLINK_ReadMemEx(0x24000010, 0x4 Bytes, Flags = 0x02000000)
T6B54 006:015.509   CPU_ReadMem(4 bytes @ 0x24000010)
T6B54 006:016.232   Data:  00 C2 EB 0B
T6B54 006:016.295 - 0.863ms returns 4 (0x4)
T6B54 006:018.734 JLINK_ReadMemEx(0x24000010, 0x4 Bytes, Flags = 0x02000000)
T6B54 006:018.763   CPU_ReadMem(4 bytes @ 0x24000010)
T6B54 006:019.443   Data:  00 C2 EB 0B
T6B54 006:019.472 - 0.737ms returns 4 (0x4)
T6B54 006:020.074 JLINK_ReadMemEx(0x240001E0, 0xF Bytes, Flags = 0x02000000)
T6B54 006:020.099   CPU_ReadMem(15 bytes @ 0x240001E0)
T6B54 006:021.067   Data:  00 00 00 00 00 00 00 00 00 00 00 00 00 00 00
T6B54 006:021.136 - 1.062ms returns 15 (0xF)
T6B54 006:021.166 JLINK_ReadMemEx(0x40020400, 0xCC Bytes, Flags = 0x02000004)
T6B54 006:021.179   CPU_ReadMem(204 bytes @ 0x40020400)
T6B54 006:022.899   Data:  00 00 00 00 00 00 00 00 00 00 00 00 00 00 00 00 ...
T6B54 006:022.916 - 1.749ms returns 204 (0xCC)
T6B54 006:022.929 JLINK_ReadMemEx(0x400204CC, 0x4 Bytes, Flags = 0x02000004)
T6B54 006:022.941   CPU_ReadMem(4 bytes @ 0x400204CC)
T6B54 006:023.755   Data:  24 00 00 00
T6B54 006:023.822 - 0.892ms returns 4 (0x4)
T6B54 006:034.701 JLINK_ReadMemEx(0x40011000, 0x14 Bytes, Flags = 0x02000004)
T6B54 006:034.735   CPU_ReadMem(20 bytes @ 0x40011000)
T6B54 006:035.453   Data:  0D 00 00 20 00 00 00 00 41 00 00 00 32 00 00 00 ...
T6B54 006:035.482 - 0.781ms returns 20 (0x14)
T6B54 006:035.500 JLINK_ReadMemEx(0x40011014, 0x4 Bytes, Flags = 0x02000004)
T6B54 006:035.515   CPU_ReadMem(4 bytes @ 0x40011014)
T6B54 006:036.015   Data:  00 00 00 00
T6B54 006:036.035 - 0.534ms returns 4 (0x4)
T6B54 006:036.049 JLINK_ReadMemEx(0x4001101C, 0x4 Bytes, Flags = 0x02000004)
T6B54 006:036.062   CPU_ReadMem(4 bytes @ 0x4001101C)
T6B54 006:036.575   Data:  D0 00 E0 08
T6B54 006:036.596 - 0.547ms returns 4 (0x4)
T6B54 006:036.611 JLINK_ReadMemEx(0x40011024, 0x8 Bytes, Flags = 0x02000004)
T6B54 006:036.624   CPU_ReadMem(8 bytes @ 0x40011024)
T6B54 006:037.204   Data:  00 00 00 00 00 00 00 00
T6B54 006:037.224 - 0.613ms returns 8 (0x8)
T6B54 006:037.255 JLINK_ReadMemEx(0x4001102C, 0x4 Bytes, Flags = 0x02000004)
T6B54 006:037.268   CPU_ReadMem(4 bytes @ 0x4001102C)
T6B54 006:037.816   Data:  00 00 00 00
T6B54 006:037.851 - 0.596ms returns 4 (0x4)
T7DAC 006:038.429 JLINK_IsHalted()
T7DAC 006:038.991 - 0.562ms returns FALSE
T7DAC 006:139.833 JLINK_HasError()
T7DAC 006:139.887 JLINK_IsHalted()
T7DAC 006:140.482 - 0.594ms returns FALSE
T7DAC 006:240.804 JLINK_HasError()
T7DAC 006:240.879 JLINK_IsHalted()
T7DAC 006:241.441 - 0.560ms returns FALSE
T7DAC 006:342.889 JLINK_HasError()
T7DAC 006:342.936 JLINK_IsHalted()
T7DAC 006:343.463 - 0.526ms returns FALSE
T7DAC 006:444.162 JLINK_HasError()
T7DAC 006:444.324 JLINK_IsHalted()
T7DAC 006:444.945 - 0.620ms returns FALSE
T7DAC 006:545.357 JLINK_HasError()
T7DAC 006:545.412 JLINK_HasError()
T7DAC 006:545.435 JLINK_ReadMemU32(0xE0001004, 0x1 Items)
T7DAC 006:545.469   Data:  9B 8D 89 0E
T7DAC 006:545.502   Debug reg: DWT_CYCCNT
T7DAC 006:545.530 - 0.095ms returns 1 (0x1)
T6B54 006:545.614 JLINK_ReadMemEx(0x2400000C, 0x4 Bytes, Flags = 0x02000000)
T6B54 006:545.669   CPU_ReadMem(4 bytes @ 0x2400000C)
T6B54 006:546.233   Data:  00 84 D7 17
T6B54 006:546.259 - 0.646ms returns 4 (0x4)
T6B54 006:547.246 JLINK_ReadMemEx(0x24000010, 0x4 Bytes, Flags = 0x02000000)
T6B54 006:547.276   CPU_ReadMem(4 bytes @ 0x24000010)
T6B54 006:547.925   Data:  00 C2 EB 0B
T6B54 006:547.945 - 0.699ms returns 4 (0x4)
T6B54 006:549.743 JLINK_ReadMemEx(0x24000010, 0x4 Bytes, Flags = 0x02000000)
T6B54 006:549.769   CPU_ReadMem(4 bytes @ 0x24000010)
T6B54 006:550.312   Data:  00 C2 EB 0B
T6B54 006:550.331 - 0.589ms returns 4 (0x4)
T6B54 006:551.043 JLINK_ReadMemEx(0x240001E0, 0xF Bytes, Flags = 0x02000000)
T6B54 006:551.064   CPU_ReadMem(15 bytes @ 0x240001E0)
T6B54 006:551.759   Data:  00 00 00 00 00 00 00 00 00 00 00 00 00 00 00
T6B54 006:551.778 - 0.736ms returns 15 (0xF)
T6B54 006:551.805 JLINK_ReadMemEx(0x40020400, 0xCC Bytes, Flags = 0x02000004)
T6B54 006:551.819   CPU_ReadMem(204 bytes @ 0x40020400)
T6B54 006:553.170   Data:  00 00 00 00 00 00 00 00 00 00 00 00 00 00 00 00 ...
T6B54 006:553.195 - 1.389ms returns 204 (0xCC)
T6B54 006:553.210 JLINK_ReadMemEx(0x400204CC, 0x4 Bytes, Flags = 0x02000004)
T6B54 006:553.226   CPU_ReadMem(4 bytes @ 0x400204CC)
T6B54 006:553.777   Data:  24 00 00 00
T6B54 006:553.796 - 0.585ms returns 4 (0x4)
T6B54 006:554.206 JLINK_ReadMemEx(0x40011000, 0x14 Bytes, Flags = 0x02000004)
T6B54 006:554.222   CPU_ReadMem(20 bytes @ 0x40011000)
T6B54 006:554.902   Data:  0D 00 00 20 00 00 00 00 41 00 00 00 32 00 00 00 ...
T6B54 006:554.933 - 0.727ms returns 20 (0x14)
T6B54 006:554.949 JLINK_ReadMemEx(0x40011014, 0x4 Bytes, Flags = 0x02000004)
T6B54 006:554.965   CPU_ReadMem(4 bytes @ 0x40011014)
T6B54 006:555.477   Data:  00 00 00 00
T6B54 006:555.495 - 0.546ms returns 4 (0x4)
T6B54 006:555.509 JLINK_ReadMemEx(0x4001101C, 0x4 Bytes, Flags = 0x02000004)
T6B54 006:555.522   CPU_ReadMem(4 bytes @ 0x4001101C)
T6B54 006:556.000   Data:  D0 00 E0 08
T6B54 006:556.017 - 0.508ms returns 4 (0x4)
T6B54 006:556.030 JLINK_ReadMemEx(0x40011024, 0x8 Bytes, Flags = 0x02000004)
T6B54 006:556.043   CPU_ReadMem(8 bytes @ 0x40011024)
T6B54 006:556.591   Data:  00 00 00 00 00 00 00 00
T6B54 006:556.614 - 0.583ms returns 8 (0x8)
T6B54 006:556.629 JLINK_ReadMemEx(0x4001102C, 0x4 Bytes, Flags = 0x02000004)
T6B54 006:556.645   CPU_ReadMem(4 bytes @ 0x4001102C)
T6B54 006:557.143   Data:  00 00 00 00
T6B54 006:557.163 - 0.534ms returns 4 (0x4)
T7DAC 006:557.483 JLINK_IsHalted()
T7DAC 006:558.163 - 0.679ms returns FALSE
T7DAC 006:658.659 JLINK_HasError()
T7DAC 006:658.711 JLINK_IsHalted()
T7DAC 006:659.213 - 0.501ms returns FALSE
T7DAC 006:759.643 JLINK_HasError()
T7DAC 006:759.711 JLINK_IsHalted()
T7DAC 006:760.257 - 0.545ms returns FALSE
T7DAC 006:861.670 JLINK_HasError()
T7DAC 006:861.716 JLINK_IsHalted()
T7DAC 006:862.251 - 0.535ms returns FALSE
T7DAC 006:962.849 JLINK_HasError()
T7DAC 006:962.928 JLINK_IsHalted()
T7DAC 006:963.477 - 0.548ms returns FALSE
T7DAC 007:064.536 JLINK_HasError()
T7DAC 007:067.625 JLINK_HasError()
T7DAC 007:067.641 JLINK_ReadMemU32(0xE0001004, 0x1 Items)
T7DAC 007:067.662   Data:  9B 8D 89 0E
T7DAC 007:067.681   Debug reg: DWT_CYCCNT
T7DAC 007:067.697 - 0.057ms returns 1 (0x1)
T6B54 007:067.761 JLINK_ReadMemEx(0x2400000C, 0x4 Bytes, Flags = 0x02000000)
T6B54 007:067.788   CPU_ReadMem(4 bytes @ 0x2400000C)
T6B54 007:068.448   Data:  00 84 D7 17
T6B54 007:068.468 - 0.707ms returns 4 (0x4)
T6B54 007:068.492 JLINK_ReadMemEx(0x24000010, 0x4 Bytes, Flags = 0x02000000)
T6B54 007:068.508   CPU_ReadMem(4 bytes @ 0x24000010)
T6B54 007:069.027   Data:  00 C2 EB 0B
T6B54 007:069.113 - 0.620ms returns 4 (0x4)
T6B54 007:071.023 JLINK_ReadMemEx(0x24000010, 0x4 Bytes, Flags = 0x02000000)
T6B54 007:071.048   CPU_ReadMem(4 bytes @ 0x24000010)
T6B54 007:071.817   Data:  00 C2 EB 0B
T6B54 007:071.848 - 0.824ms returns 4 (0x4)
T6B54 007:072.297 JLINK_ReadMemEx(0x240001E0, 0xF Bytes, Flags = 0x02000000)
T6B54 007:072.325   CPU_ReadMem(15 bytes @ 0x240001E0)
T6B54 007:073.045   Data:  00 00 00 00 00 00 00 00 00 00 00 00 00 00 00
T6B54 007:073.063 - 0.766ms returns 15 (0xF)
T6B54 007:073.089 JLINK_ReadMemEx(0x40020400, 0xCC Bytes, Flags = 0x02000004)
T6B54 007:073.103   CPU_ReadMem(204 bytes @ 0x40020400)
T6B54 007:074.473   Data:  00 00 00 00 00 00 00 00 00 00 00 00 00 00 00 00 ...
T6B54 007:074.490 - 1.400ms returns 204 (0xCC)
T6B54 007:074.507 JLINK_ReadMemEx(0x400204CC, 0x4 Bytes, Flags = 0x02000004)
T6B54 007:074.521   CPU_ReadMem(4 bytes @ 0x400204CC)
T6B54 007:075.094   Data:  24 00 00 00
T6B54 007:075.112 - 0.605ms returns 4 (0x4)
T6B54 007:075.501 JLINK_ReadMemEx(0x40011000, 0x14 Bytes, Flags = 0x02000004)
T6B54 007:075.518   CPU_ReadMem(20 bytes @ 0x40011000)
T6B54 007:076.220   Data:  0D 00 00 20 00 00 00 00 41 00 00 00 32 00 00 00 ...
T6B54 007:076.241 - 0.739ms returns 20 (0x14)
T6B54 007:076.254 JLINK_ReadMemEx(0x40011014, 0x4 Bytes, Flags = 0x02000004)
T6B54 007:076.267   CPU_ReadMem(4 bytes @ 0x40011014)
T6B54 007:076.772   Data:  00 00 00 00
T6B54 007:076.795 - 0.540ms returns 4 (0x4)
T6B54 007:076.813 JLINK_ReadMemEx(0x4001101C, 0x4 Bytes, Flags = 0x02000004)
T6B54 007:076.827   CPU_ReadMem(4 bytes @ 0x4001101C)
T6B54 007:077.373   Data:  D0 00 E0 08
T6B54 007:077.397 - 0.584ms returns 4 (0x4)
T6B54 007:077.414 JLINK_ReadMemEx(0x40011024, 0x8 Bytes, Flags = 0x02000004)
T6B54 007:077.428   CPU_ReadMem(8 bytes @ 0x40011024)
T6B54 007:077.977   Data:  00 00 00 00 00 00 00 00
T6B54 007:078.001 - 0.586ms returns 8 (0x8)
T6B54 007:078.019 JLINK_ReadMemEx(0x4001102C, 0x4 Bytes, Flags = 0x02000004)
T6B54 007:078.034   CPU_ReadMem(4 bytes @ 0x4001102C)
T6B54 007:078.621   Data:  00 00 00 00
T6B54 007:078.656 - 0.636ms returns 4 (0x4)
T7DAC 007:079.086 JLINK_IsHalted()
T7DAC 007:079.617 - 0.530ms returns FALSE
T7DAC 007:181.027 JLINK_HasError()
T7DAC 007:181.158 JLINK_IsHalted()
T7DAC 007:181.881 - 0.721ms returns FALSE
T7DAC 007:283.481 JLINK_HasError()
T7DAC 007:283.670 JLINK_IsHalted()
T7DAC 007:284.642 - 0.969ms returns FALSE
T7DAC 007:385.733 JLINK_HasError()
T7DAC 007:385.801 JLINK_IsHalted()
T7DAC 007:386.365 - 0.562ms returns FALSE
